Circuit: * \\S-MACBOOKPRO\SpaceTech_GARAGE\LTSpice\rsp02_LoadSW_OCP_Circuit_v1_2\rsp02_LoadSW_OCP_Circuit_v1_2.asc

Iload_tran: both pins shorted together -- ignoring.
Model "q1:nmos": Oxide thickness thinner than recommended for a level 3 MOSFET.
Model "q1:pmos": Oxide thickness thinner than recommended for a level 3 MOSFET.
WARNING: Less than two connections to node N003.  This node is used by VIOEXPDR_TRAN.
WARNING: Less than two connections to node N006.  This node is used by VRRX_TRAN.
WARNING: Less than two connections to node N005.  This node is used by VIN_AC.
Instance "m:u1:u1:t1:ni2": Length shorter than recommended for a level 1 MOSFET.
Instance "m:u1:u1:t2:ni2": Length shorter than recommended for a level 1 MOSFET.
Instance "m:u1:u1:t3:6": Length shorter than recommended for a level 1 MOSFET.
Instance "m:u1:u1:t3:6": Width narrower than recommended for a level 1 MOSFET.
Instance "m:u1:u1:mp1:1": Length shorter than recommended for a level 1 MOSFET.
Instance "m:u1:u1:t4:1": Length shorter than recommended for a level 1 MOSFET.
Instance "m:u1:u1:t4:1": Width narrower than recommended for a level 1 MOSFET.
Instance "m:u1:u1:md1:6": Length shorter than recommended for a level 1 MOSFET.
Instance "m:q1:2": Length shorter than recommended for a level 3 MOSFET.
Instance "m:q1:1": Length shorter than recommended for a level 3 MOSFET.
Ignoring empty pin current: Ix(u1:u1:u2:in+)
Ignoring empty pin current: Ix(u1:u1:u2:in-)
Ignoring empty pin current: Ix(u1:u1:sdcomp:in+)
Ignoring empty pin current: Ix(u1:u1:sdcomp:in-)
Ignoring empty pin current: Ix(u1:u1:vrvbcomp:in+)
Ignoring empty pin current: Ix(u1:u1:vrvbcomp:in-)
Direct Newton iteration failed to find .op point.  (Use ".option noopiter" to skip.)
Starting Gmin stepping
Gmin = 10
Gmin = 1.07374
Gmin = 0.115292
Gmin = 0.0123794
vernier = 0.5
vernier = 0.666667
Gmin = 0.0043261
vernier = 0.888888
vernier = 0.444444
Gmin = 0.00109875
vernier = 0.222222
vernier = 0.111111
vernier = 0.0555555
vernier = 0.0277778
Gmin = 0.00101279
vernier = 0.0138889
vernier = 0.00694444
vernier = 0.00347222
Gmin = 0.000999717
vernier = 0.00173611
vernier = 0.000868055
vernier = 0.000434028
Gmin = 0
Gmin stepping failed

Starting source stepping with srcstepmethod=0
Source Step = 3.0303%
Source Step = 33.3333%
Source Step = 37.7841%
Source Step = 37.9261%
Source Step = 38.0445%
Source Step = 38.1629%
Source Step = 38.2813%
Source Step = 38.3996%
vernier = 0.00585938
Source Step = 38.5594%
Source Step = 38.737%
Source Step = 38.9145%
Source Step = 39.0921%
Source Step = 39.2696%
vernier = 0.00878906
Source Step = 39.5005%
Source Step = 39.7668%
Source Step = 40.0331%
Source Step = 40.2995%
Source Step = 40.5658%
vernier = 0.0131836
Source Step = 40.8987%
Source Step = 41.2982%
Source Step = 41.6977%
Source Step = 42.0972%
Source Step = 42.4967%
vernier = 0.0197754
Source Step = 42.9761%
Source Step = 43.5754%
Source Step = 44.1747%
Source Step = 44.7739%
Source Step = 45.3732%
vernier = 0.0296631
Source Step = 46.0623%
Source Step = 46.6971%
Source Step = 46.7533%
Source Step = 46.8095%
Source Step = 46.8657%
Source Step = 46.9219%
Source Step = 46.978%
vernier = 0.00278091
Source Step = 47.0595%
Source Step = 47.1438%
Source Step = 47.228%
Source Step = 47.3123%
Source Step = 47.3966%
vernier = 0.00417137
Source Step = 47.5146%
Source Step = 47.641%
Source Step = 47.7674%
Source Step = 47.8938%
Source Step = 48.0202%
vernier = 0.00625706
Source Step = 48.1908%
Source Step = 48.3804%
Source Step = 48.57%
Source Step = 48.7597%
Source Step = 48.9493%
vernier = 0.00938559
Source Step = 49.1958%
Source Step = 49.4802%
Source Step = 49.7646%
Source Step = 50.049%
Source Step = 50.3334%
vernier = 0.0140784
Source Step = 50.6889%
Source Step = 51.1155%
Source Step = 51.5421%
Source Step = 51.9688%
Source Step = 52.3954%
vernier = 0.0211176
Source Step = 52.9073%
Source Step = 53.5473%
Source Step = 54.1872%
Source Step = 54.8271%
Source Step = 55.467%
vernier = 0.0316764
Source Step = 56.2029%
Source Step = 57.1628%
Source Step = 58.1227%
Source Step = 59.0826%
Source Step = 60.0425%
vernier = 0.0475145
Source Step = 61.0984%
Source Step = 62.5382%
Source Step = 63.978%
Source Step = 65.4179%
Source Step = 66.8577%
vernier = 0.0712718
Source Step = 68.3695%
Source Step = 70.5293%
Source Step = 72.689%
Source Step = 74.8488%
Source Step = 77.0085%
Source Step = 79.1683%
vernier = 0.106908
Source Step = 82.4079%
Source Step = 85.6476%
Source Step = 88.8872%
Source Step = 92.1268%
vernier = 0.0267269
Source Step = 92.6128%
Source Step = 93.4227%
Source Step = 94.2326%
Source Step = 95.0425%
Source Step = 95.8524%
vernier = 0.0400904
Source Step = 97.0267%
Source Step = 98.2416%
Source Step = 98.9857%
Source Step = 99.0616%
Source Step = 99.1376%
Source Step = 99.2135%
Source Step = 99.2894%
Source Step = 99.3653%
Source Step = 99.4413%
Source Step = 99.5172%
Source Step = 99.5931%
Source Step = 99.6691%
vernier = 0.00375847
Source Step = 99.7716%
Source Step = 99.8855%
Source Step = 99.9994%
Source stepping succeeded in finding the operating point.

Semiconductor Device Operating Points:
                        --- Diodes ---
Name:   d:ic1:12    d:ic1:11    d:ic1:14    d:ic1:10     d:ic1:9
Model:   ic1:dz      ic1:dz      ic1:dy      ic1:dx      ic1:dx
Id:     -9.94e-07   -9.94e-07    1.63e-02    1.15e-07   -4.30e-13
Vd:     -1.31e-01   -1.31e-01    4.30e-01    4.20e-01   -4.20e-01
Req:     4.10e+06    4.09e+06    1.59e+00    2.25e+05    1.00e+12
CAP:     0.00e+00    0.00e+00    0.00e+00    0.00e+00    0.00e+00

Name:   d:ic1:13     d:ic1:8     d:ic1:7     d:ic1:6     d:ic1:5
Model:   ic1:dx      ic1:dx      ic1:dx      ic1:dx      ic1:dx
Id:      1.65e-05   -2.68e-12    7.86e-06   -1.51e-12    5.96e-07
Vd:      5.49e-01   -2.67e+00    5.30e-01   -1.50e+00    4.63e-01
Req:     1.56e+03    1.00e+12    3.29e+03    1.00e+12    4.34e+04
CAP:     0.00e+00    0.00e+00    0.00e+00    0.00e+00    0.00e+00

Name:    d:ic1:4     d:ic1:3     d:ic1:2     d:ic1:1       d:u1:dp1:1
Model:   ic1:dx      ic1:dx      ic1:dx      ic1:dx    u1:dp1:ddis1pn0_52
Id:     -1.13e-13    6.37e-13   -2.94e-13   -1.90e-13      -4.30e-12
Vd:     -1.03e-01    1.03e-01   -2.84e-01   -1.80e-01      -3.30e+00
Req:     9.93e+11    4.54e+10    1.00e+12    1.00e+12       1.00e+12
CAP:     0.00e+00    0.00e+00    0.00e+00    0.00e+00       0.00e+00

Name:      d:u1:dp2:1         d:u1:dp3:1         d:u1:dp4:1     d:u1:u1:d1:1 d:u1:u1:d2:1
Model: u1:dp2:ddis1pn0_52 u1:dp3:ddis1pn0_52 u1:dp4:ddis1pn0_52 u1:u1:d1:dd  u1:u1:d2:dd
Id:        -2.19e-13          -4.30e-12           0.00e+00       -2.70e-11    -3.41e-11
Vd:        -3.27e-03          -3.30e+00           0.00e+00       -2.60e+01    -3.31e+01
Req:        1.69e+10           1.00e+12           1.33e+10        1.00e+12     1.00e+12
CAP:        0.00e+00           0.00e+00           0.00e+00        0.00e+00     0.00e+00

Name:   d:u1:u1:dzr:1   d:u1:u1:dr:1 d:u1:u1:db1:1  d:u1:u1:dzb1:1   d:u1:u1:d9:1
Model: u1:u1:dzr:d_2_1v u1:u1:dr:dd  u1:u1:db1:dd  u1:u1:dzb1:d_2_1v u1:u1:d9:dd
Id:       -1.50e-05      -5.27e-13     -2.18e-12       -1.00e-06       1.60e-05
Vd:       -2.10e+00      -5.17e-01     -1.18e+00       -2.10e+00       5.64e-01
Req:       1.72e+03       1.00e+12      1.00e+12        2.59e+04       1.62e+03
CAP:       0.00e+00       0.00e+00      0.00e+00        0.00e+00       0.00e+00

Name:  d:u1:u1:d10:1 d:u1:u1:d3:1 d:u1:u1:dpo1:1 d:u1:u1:d4:1  d:u1:u1:d5:1
Model: u1:u1:d10:dd  u1:u1:d3:dd  u1:u1:dpo1:dd  u1:u1:d4:d_2v u1:u1:d5:d_2v
Id:      -2.52e-12    -3.29e-12     -1.08e-12      -2.03e-12      2.96e-05
Vd:      -2.52e+00    -3.28e+00     -1.07e+00      -1.03e+00      4.45e-02
Req:      1.00e+12     1.00e+12      1.00e+12       1.00e+12      8.74e+01
CAP:      0.00e+00     0.00e+00      0.00e+00       0.00e+00      0.00e+00

Name:  d:u1:u1:dp2:1 d:u1:u1:d11:1  d:u1:dp5:1   d:u1:dp6:1    d:q1:bd
Model: u1:u1:dp2:dd  u1:u1:d11:dd  u1:dp5:d_26v u1:dp6:d_26v   q1:dbd
Id:       1.07e-08      1.07e-08    -4.30e-12    -4.30e-12    -2.94e-06
Vd:       6.00e-01      6.00e-01    -3.30e+00    -3.30e+00    -3.30e+00
Req:      2.42e+06      2.42e+06     1.00e+12     1.00e+12     1.00e+12
CAP:      0.00e+00      0.00e+00     0.00e+00     0.00e+00     1.50e-11

Name:     d§cr4       d§cr3      d:cr2:1     d:cr1:1
Model:      d           d       cr2:diode   cr1:diode
Id:      1.05e-04    1.05e-04    1.33e-10    5.52e-07
Vd:      5.97e-01    5.97e-01    4.98e-03    2.84e-01
Req:     2.47e+02    2.47e+02    3.56e+07    8.28e+04
CAP:     0.00e+00    0.00e+00    1.05e-13    3.07e-13

                        --- Bipolar Transistors ---
Name:     q:ic1:2     q:ic1:1       q3
Model:    ic1:qp      ic1:qp      bc848b
Ib:      -1.08e-09   -5.89e-08    1.48e-04
Ic:      -1.44e-07   -7.86e-06    3.30e-05
Vbe:     -5.46e-01   -6.49e-01    6.13e-01
Vbc:      3.12e+00    2.97e+00    6.09e-01
Vce:     -3.66e+00   -3.61e+00    4.07e-03
BetaDC:   1.34e+02    1.33e+02    2.23e-01
Gm:       5.59e-06    3.04e-04    6.70e-03
Rpi:      2.39e+07    4.39e+05    5.66e+03
Rx:       0.00e+00    0.00e+00    1.39e+01
Ro:       6.05e+66    1.62e+64    2.45e+01
Cbe:      0.00e+00    0.00e+00    3.44e-11
Cbc:      0.00e+00    0.00e+00    4.62e-09
Cjs:      0.00e+00    0.00e+00    0.00e+00
BetaAC:   1.33e+02    1.33e+02    3.79e+01
Cbx:      0.00e+00    0.00e+00    0.00e+00
Ft:       0.00e+00    0.00e+00    2.29e+05

                        --- VDMOSFET Transistors ---
Name:         m§q2
Model:       irf7404
Id:         -4.51e-07
Vgs:        -3.25e+00
Vds:        -1.94e-08
Vth:        -1.00e+00
Gm:          2.01e-07
Gds:         6.75e+01
Cgs:         2.70e-09
Cgd:         1.60e-09
Cbody:       8.00e-10

                        --- MOSFET Transistors ---
Name:      m:u1:u1:t1:ni2  m:u1:u1:t2:ni2   m:u1:u1:t3:6     m:u1:u1:mp1:1     m:u1:u1:t4:1
Model:     u1:u1:t1:q_nmos u1:u1:t2:q_nmos u1:u1:t3:drvmos u1:u1:mp1:drvpmos u1:u1:t4:drvpmos
Id:            1.00e-06        9.96e-07        1.00e-06        -1.64e-05        -1.00e-06
Vgs:           7.17e-01        7.17e-01        1.13e+00        -1.06e+00        -1.10e+00
Vds:           2.35e+01        2.35e+01        1.13e+00        -3.30e+00        -1.10e+00
Vbs:           0.00e+00        0.00e+00        0.00e+00         0.00e+00         0.00e+00
Vth:           7.00e-01        7.00e-01        1.00e+00        -1.00e+00        -1.00e+00
Vdsat:         1.66e-02        1.65e-02        1.33e-01        -5.69e-02        -1.02e-01
Gm:            1.21e-04        1.21e-04        1.50e-05         5.76e-04         1.97e-05
Gds:           0.00e+00        0.00e+00        1.96e-08         3.07e-07         1.96e-08
Gmb:           0.00e+00        0.00e+00        0.00e+00         0.00e+00         0.00e+00
Cbd:           0.00e+00        0.00e+00        0.00e+00         0.00e+00         0.00e+00
Cbs:           0.00e+00        0.00e+00        0.00e+00         0.00e+00         0.00e+00
Cgsov:         0.00e+00        0.00e+00        0.00e+00         0.00e+00         0.00e+00
Cgdov:         0.00e+00        0.00e+00        0.00e+00         0.00e+00         0.00e+00
Cgbov:         0.00e+00        0.00e+00        0.00e+00         0.00e+00         0.00e+00
Cgs:           0.00e+00        0.00e+00        0.00e+00         0.00e+00         0.00e+00
Cgd:           0.00e+00        0.00e+00        0.00e+00         0.00e+00         0.00e+00
Cgb:           0.00e+00        0.00e+00        0.00e+00         0.00e+00         0.00e+00

Name:       m:u1:u1:md1:6     m:q1:2      m:q1:1
Model:     u1:u1:md1:drvmos   q1:nmos     q1:pmos
Id:            1.96e-05       3.30e-12   -8.99e-10
Vgs:           2.16e+00      -4.53e-02   -4.53e-02
Vds:           3.27e-03       0.00e+00   -3.30e+00
Vbs:           0.00e+00      -3.30e+00    0.00e+00
Vth:           1.00e+00       2.48e+00   -1.07e+00
Vdsat:         1.16e+00       0.00e+00   -5.00e-02
Gm:            1.69e-05       0.00e+00    1.69e-08
Gds:           6.36e-03       0.00e+00    6.69e-12
Gmb:           0.00e+00       0.00e+00    2.73e-09
Cbd:           0.00e+00       0.00e+00    0.00e+00
Cbs:           0.00e+00       0.00e+00    0.00e+00
Cgsov:         0.00e+00       0.00e+00    0.00e+00
Cgdov:         0.00e+00       0.00e+00    0.00e+00
Cgbov:         0.00e+00       0.00e+00    0.00e+00
Cgs:           0.00e+00       0.00e+00    2.58e-09
Cgd:           0.00e+00       0.00e+00    0.00e+00
Cgb:           0.00e+00       6.51e-09    0.00e+00



Date: Wed Jan 27 19:17:42 2021
Total elapsed time: 3.483 seconds.

tnom = 27
temp = 27
method = trap
totiter = 10938
traniter = 0
tranpoints = 0
accept = 0
rejected = 0
matrix size = 184
fillins = 273
solver = Alternate
Thread vector: 38.9/30.8[3] 0.0/0.0[0] 8.7/4.2[3] 5.4/2.5[3]  2592/500
Matrix Compiler1: 27.45 KB object code size
Matrix Compiler2: 22.80 KB object code size  5.9/7.2/[4.1]

